T46B0 000:006.332   SEGGER J-Link V7.86b Log File
T46B0 000:006.515   DLL Compiled: Mar  1 2023 16:53:12
T46B0 000:006.525   Logging started @ 2023-08-31 11:56
T46B0 000:006.534 - 6.539ms
T46B0 000:006.552 JLINK_SetWarnOutHandler(...)
T46B0 000:006.564 - 0.016ms
T46B0 000:006.574 JLINK_OpenEx(...)
T46B0 000:013.686   Firmware: J-Link ARM V8 compiled Nov 28 2014 13:44:46
T46B0 000:016.658   Firmware: J-Link ARM V8 compiled Nov 28 2014 13:44:46
T46B0 000:036.628   Hardware: V8.00
T46B0 000:036.664   S/N: 539033857
T46B0 000:036.678   OEM: SEGGER
T46B0 000:036.692   Feature(s): RDI,FlashDL,FlashBP,JFlash,GDBFull
T46B0 000:050.700   TELNET listener socket opened on port 19021
T46B0 000:050.946   WEBSRV WEBSRV_Init(): Starting webserver thread(s)
T46B0 000:051.154   WEBSRV Webserver running on local port 19080
T46B0 000:079.928 - 73.376ms returns "O.K."
T46B0 000:079.993 JLINK_GetEmuCaps()
T46B0 000:080.004 - 0.016ms returns 0xB9FF7BBF
T46B0 000:080.020 JLINK_TIF_GetAvailable(...)
T46B0 000:081.598 - 1.590ms
T46B0 000:081.621 JLINK_SetErrorOutHandler(...)
T46B0 000:081.630 - 0.014ms
T46B0 000:081.682 JLINK_ExecCommand("ProjectFile = "D:\1-SoftDesign\MotorControl\HW1_4_1\Encoder_2500 (2)\MDK-ARM\JLinkSettings.ini"", ...). 
T46B0 000:097.893   Ref file found at: C:\Program Files\1-MDKARM\Hard\ARM\Segger\JLinkDevices.ref
T46B0 000:098.084   REF file references invalid XML file: C:\Program Files\SEGGER\JLink\JLinkDevices.xml
T46B0 000:098.461 - 16.788ms returns 0x00
T46B0 000:104.767 JLINK_ExecCommand("Device = STM32F405RGTx", ...). 
T46B0 000:109.564   Device "STM32F405RG" selected.
T46B0 000:110.130 - 5.338ms returns 0x00
T46B0 000:110.157 JLINK_ExecCommand("DisableConnectionTimeout", ...). 
T46B0 000:110.174 - 0.007ms returns 0x01
T46B0 000:110.187 JLINK_GetHardwareVersion()
T46B0 000:110.197 - 0.014ms returns 80000
T46B0 000:110.217 JLINK_GetDLLVersion()
T46B0 000:110.228 - 0.016ms returns 78602
T46B0 000:110.243 JLINK_GetOEMString(...)
T46B0 000:110.257 JLINK_GetFirmwareString(...)
T46B0 000:110.267 - 0.014ms
T46B0 000:121.636 JLINK_GetDLLVersion()
T46B0 000:121.673 - 0.045ms returns 78602
T46B0 000:121.693 JLINK_GetCompileDateTime()
T46B0 000:121.707 - 0.021ms
T46B0 000:125.629 JLINK_GetFirmwareString(...)
T46B0 000:125.660 - 0.038ms
T46B0 000:129.295 JLINK_GetHardwareVersion()
T46B0 000:129.322 - 0.032ms returns 80000
T46B0 000:133.637 JLINK_GetSN()
T46B0 000:133.672 - 0.042ms returns 539033857
T46B0 000:137.172 JLINK_GetOEMString(...)
T46B0 000:145.054 JLINK_TIF_Select(JLINKARM_TIF_SWD)
T46B0 000:151.692 - 6.664ms returns 0x00
T46B0 000:151.732 JLINK_HasError()
T46B0 000:151.774 JLINK_SetSpeed(500)
T46B0 000:152.629 - 0.868ms
T46B0 000:152.653 JLINK_GetId()
T46B0 000:158.163   InitTarget() start
T46B0 000:158.200    J-Link Script File: Executing InitTarget()
T46B0 000:165.496   SWD selected. Executing JTAG -> SWD switching sequence.
T46B0 000:207.248   DAP initialized successfully.
T46B0 000:355.260   InitTarget() end - Took 191ms
T46B0 000:363.346   Found SW-DP with ID 0x2BA01477
T46B0 000:411.547   Old FW that does not support reading DPIDR via DAP jobs
T46B0 000:464.842   DPv0 detected
T46B0 000:471.458   CoreSight SoC-400 or earlier
T46B0 000:474.978   Scanning AP map to find all available APs
T46B0 000:512.025   AP[1]: Stopped AP scan as end of AP map has been reached
T46B0 000:516.165   AP[0]: AHB-AP (IDR: 0x24770011)
T46B0 000:520.534   Iterating through AP map to find AHB-AP to use
T46B0 000:579.572   AP[0]: Core found
T46B0 000:584.517   AP[0]: AHB-AP ROM base: 0xE00FF000
T46B0 000:616.342   CPUID register: 0x410FC241. Implementer code: 0x41 (ARM)
T46B0 000:622.958   Found Cortex-M4 r0p1, Little endian.
T46B0 000:626.537   -- Max. mem block: 0x00002408
T46B0 000:630.556   CPU_ReadMem(4 bytes @ 0xE000EDF0)
T46B0 000:633.544   CPU_ReadMem(4 bytes @ 0xE0002000)
T46B0 000:641.288   FPUnit: 6 code (BP) slots and 2 literal slots
T46B0 000:641.334   CPU_ReadMem(4 bytes @ 0xE000EDFC)
T46B0 000:642.540   CPU_WriteMem(4 bytes @ 0xE000EDFC)
T46B0 000:645.564   CPU_ReadMem(4 bytes @ 0xE0001000)
T46B0 000:648.559   CPU_WriteMem(4 bytes @ 0xE0001000)
T46B0 000:651.566   CPU_ReadMem(4 bytes @ 0xE000ED88)
T46B0 000:654.567   CPU_WriteMem(4 bytes @ 0xE000ED88)
T46B0 000:657.548   CPU_ReadMem(4 bytes @ 0xE000ED88)
T46B0 000:660.558   CPU_WriteMem(4 bytes @ 0xE000ED88)
T46B0 000:666.761   CoreSight components:
T46B0 000:670.685   ROMTbl[0] @ E00FF000
T46B0 000:670.744   CPU_ReadMem(64 bytes @ 0xE00FF000)
T46B0 000:675.618   CPU_ReadMem(32 bytes @ 0xE000EFE0)
T46B0 000:683.103   [0][0]: E000E000 CID B105E00D PID 000BB00C SCS-M7
T46B0 000:683.149   CPU_ReadMem(32 bytes @ 0xE0001FE0)
T46B0 000:689.713   [0][1]: E0001000 CID B105E00D PID 003BB002 DWT
T46B0 000:689.759   CPU_ReadMem(32 bytes @ 0xE0002FE0)
T46B0 000:696.994   [0][2]: E0002000 CID B105E00D PID 002BB003 FPB
T46B0 000:697.035   CPU_ReadMem(32 bytes @ 0xE0000FE0)
T46B0 000:704.332   [0][3]: E0000000 CID B105E00D PID 003BB001 ITM
T46B0 000:704.377   CPU_ReadMem(32 bytes @ 0xE0040FE0)
T46B0 000:711.354   [0][4]: E0040000 CID B105900D PID 000BB9A1 TPIU
T46B0 000:711.398   CPU_ReadMem(32 bytes @ 0xE0041FE0)
T46B0 000:719.116   [0][5]: E0041000 CID 00000000 PID 00000000 ???
T46B0 000:724.549 - 571.923ms returns 0x2BA01477
T46B0 000:724.594 JLINK_GetDLLVersion()
T46B0 000:724.605 - 0.016ms returns 78602
T46B0 000:724.620 JLINK_CORE_GetFound()
T46B0 000:724.631 - 0.018ms returns 0xE0000FF
T46B0 000:724.649 JLINK_GetDebugInfo(0x100 = JLINKARM_ROM_TABLE_ADDR_INDEX)
T46B0 000:724.665   Value=0xE00FF000
T46B0 000:724.684 - 0.040ms returns 0
T46B0 000:730.205 JLINK_GetDebugInfo(0x100 = JLINKARM_ROM_TABLE_ADDR_INDEX)
T46B0 000:730.240   Value=0xE00FF000
T46B0 000:730.253 - 0.053ms returns 0
T46B0 000:730.265 JLINK_GetDebugInfo(0x101 = JLINKARM_DEBUG_INFO_ETM_ADDR_INDEX)
T46B0 000:730.275   Value=0x00000000
T46B0 000:730.288 - 0.027ms returns 0
T46B0 000:730.318 JLINK_ReadMemEx(0xE0041FF0, 0x10 Bytes, Flags = 0x02000004)
T46B0 000:730.359   CPU_ReadMem(16 bytes @ 0xE0041FF0)
T46B0 000:732.631   Data:  00 00 00 00 00 00 00 00 00 00 00 00 00 00 00 00
T46B0 000:732.663 - 2.353ms returns 16 (0x10)
T46B0 000:732.683 JLINK_GetDebugInfo(0x102 = JLINKARM_DEBUG_INFO_MTB_ADDR_INDEX)
T46B0 000:732.695   Value=0x00000000
T46B0 000:732.711 - 0.033ms returns 0
T46B0 000:732.723 JLINK_GetDebugInfo(0x103 = JLINKARM_DEBUG_INFO_TPIU_ADDR_INDEX)
T46B0 000:732.734   Value=0xE0040000
T46B0 000:732.749 - 0.031ms returns 0
T46B0 000:732.762 JLINK_GetDebugInfo(0x104 = JLINKARM_DEBUG_INFO_ITM_ADDR_INDEX)
T46B0 000:732.773   Value=0xE0000000
T46B0 000:732.788 - 0.031ms returns 0
T46B0 000:732.800 JLINK_GetDebugInfo(0x105 = JLINKARM_DEBUG_INFO_DWT_ADDR_INDEX)
T46B0 000:732.811   Value=0xE0001000
T46B0 000:732.827 - 0.031ms returns 0
T46B0 000:732.839 JLINK_GetDebugInfo(0x106 = JLINKARM_DEBUG_INFO_FPB_ADDR_INDEX)
T46B0 000:732.850   Value=0xE0002000
T46B0 000:732.865 - 0.031ms returns 0
T46B0 000:732.877 JLINK_GetDebugInfo(0x107 = JLINKARM_DEBUG_INFO_NVIC_ADDR_INDEX)
T46B0 000:732.888   Value=0xE000E000
T46B0 000:732.903 - 0.031ms returns 0
T46B0 000:732.915 JLINK_GetDebugInfo(0x10C = JLINKARM_DEBUG_INFO_DBG_ADDR_INDEX)
T46B0 000:732.926   Value=0xE000EDF0
T46B0 000:732.941 - 0.031ms returns 0
T46B0 000:732.954 JLINK_GetDebugInfo(0x01 = Unknown)
T46B0 000:732.974   Value=0x00000001
T46B0 000:732.989 - 0.040ms returns 0
T46B0 000:733.002 JLINK_ReadMemU32(0xE000ED00, 0x1 Items)
T46B0 000:733.021   CPU_ReadMem(4 bytes @ 0xE000ED00)
T46B0 000:735.538   Data:  41 C2 0F 41
T46B0 000:735.568   Debug reg: CPUID
T46B0 000:735.581 - 2.584ms returns 1 (0x1)
T46B0 000:735.597 JLINK_GetDebugInfo(0x10F = JLINKARM_DEBUG_INFO_HAS_CORTEX_M_SECURITY_EXT_INDEX)
T46B0 000:735.607   Value=0x00000000
T46B0 000:735.620 - 0.028ms returns 0
T46B0 000:735.632 JLINK_HasError()
T46B0 000:735.643 JLINK_SetResetType(JLINKARM_CM3_RESET_TYPE_NORMAL)
T46B0 000:735.655 - 0.018ms returns JLINKARM_CM3_RESET_TYPE_NORMAL
T46B0 000:735.672 JLINK_Reset()
T46B0 000:735.737   CPU is running
T46B0 000:735.756   CPU_WriteMem(4 bytes @ 0xE000EDF0)
T46B0 000:738.576   CPU is running
T46B0 000:738.626   CPU_WriteMem(4 bytes @ 0xE000EDFC)
T46B0 000:745.956   Reset: Halt core after reset via DEMCR.VC_CORERESET.
T46B0 000:754.489   Reset: Reset device via AIRCR.SYSRESETREQ.
T46B0 000:754.531   CPU is running
T46B0 000:754.551   CPU_WriteMem(4 bytes @ 0xE000ED0C)
T46B0 000:820.546   CPU_ReadMem(4 bytes @ 0xE000EDF0)
T46B0 000:824.577   CPU_ReadMem(4 bytes @ 0xE000EDF0)
T46B0 000:852.692   CPU_WriteMem(4 bytes @ 0xE000EDFC)
T46B0 000:861.284   CPU_ReadMem(4 bytes @ 0xE000EDF0)
T46B0 000:888.638   CPU_WriteMem(4 bytes @ 0xE0002000)
T46B0 000:891.535   CPU_ReadMem(4 bytes @ 0xE000EDFC)
T46B0 000:895.538   CPU_ReadMem(4 bytes @ 0xE0001000)
T46B0 000:899.555 - 163.903ms
T46B0 000:899.592 JLINK_Halt()
T46B0 000:899.602 - 0.014ms returns 0x00
T46B0 000:899.615 JLINK_ReadMemU32(0xE000EDF0, 0x1 Items)
T46B0 000:899.634   CPU_ReadMem(4 bytes @ 0xE000EDF0)
T46B0 000:903.535   Data:  03 00 03 00
T46B0 000:903.562   Debug reg: DHCSR
T46B0 000:903.576 - 3.965ms returns 1 (0x1)
T46B0 000:903.644 JLINK_WriteU32_64(0xE000EDF0, 0xA05F0003)
T46B0 000:903.663   Debug reg: DHCSR
T46B0 000:903.915   CPU_WriteMem(4 bytes @ 0xE000EDF0)
T46B0 000:906.534 - 2.902ms returns 0 (0x00000000)
T46B0 000:906.557 JLINK_WriteU32_64(0xE000EDFC, 0x01000000)
T46B0 000:906.570   Debug reg: DEMCR
T46B0 000:906.593   CPU_WriteMem(4 bytes @ 0xE000EDFC)
T46B0 000:909.536 - 2.993ms returns 0 (0x00000000)
T46B0 000:923.611 JLINK_GetHWStatus(...)
T46B0 000:925.616 - 2.032ms returns 0
T46B0 000:936.465 JLINK_GetNumBPUnits(Type = 0xFFFFFF00)
T46B0 000:936.501 - 0.040ms returns 0x06
T46B0 000:936.513 JLINK_GetNumBPUnits(Type = 0xF0)
T46B0 000:936.522 - 0.014ms returns 0x2000
T46B0 000:936.533 JLINK_GetNumWPUnits()
T46B0 000:936.542 - 0.013ms returns 4
T46B0 000:946.085 JLINK_GetSpeed()
T46B0 000:946.117 - 0.036ms returns 500
T46B0 000:953.174 JLINK_ReadMemU32(0xE000E004, 0x1 Items)
T46B0 000:953.223   CPU_ReadMem(4 bytes @ 0xE000E004)
T46B0 000:956.540   Data:  02 00 00 00
T46B0 000:956.570 - 3.401ms returns 1 (0x1)
T46B0 000:956.591 JLINK_ReadMemU32(0xE000E004, 0x1 Items)
T46B0 000:956.611   CPU_ReadMem(4 bytes @ 0xE000E004)
T46B0 000:960.531   Data:  02 00 00 00
T46B0 000:960.552 - 3.965ms returns 1 (0x1)
T46B0 000:960.567 JLINK_WriteMemEx(0xE0001000, 0x0000001C Bytes, Flags = 0x02000004)
T46B0 000:960.578   Data:  01 00 00 00 00 00 00 00 00 00 00 00 00 00 00 00 ...
T46B0 000:960.600   CPU_WriteMem(28 bytes @ 0xE0001000)
T46B0 000:964.541 - 3.995ms returns 0x1C
T46B0 000:964.634 JLINK_Halt()
T46B0 000:964.648 - 0.019ms returns 0x00
T46B0 000:964.661 JLINK_IsHalted()
T46B0 000:964.672 - 0.017ms returns TRUE
T46B0 000:969.715 JLINK_WriteMem(0x20000000, 0x184 Bytes, ...)
T46B0 000:969.738   Data:  00 BE 0A E0 0D 78 2D 06 68 40 08 24 40 00 00 D3 ...
T46B0 000:969.971   CPU_WriteMem(388 bytes @ 0x20000000)
T46B0 000:982.548 - 12.860ms returns 0x184
T46B0 000:982.644 JLINK_HasError()
T46B0 000:982.661 JLINK_WriteReg(R0, 0x08000000)
T46B0 000:982.677 - 0.022ms returns 0
T46B0 000:982.690 JLINK_WriteReg(R1, 0x007A1200)
T46B0 000:982.702 - 0.017ms returns 0
T46B0 000:982.714 JLINK_WriteReg(R2, 0x00000001)
T46B0 000:982.726 - 0.017ms returns 0
T46B0 000:982.738 JLINK_WriteReg(R3, 0x00000000)
T46B0 000:982.750 - 0.017ms returns 0
T46B0 000:982.762 JLINK_WriteReg(R4, 0x00000000)
T46B0 000:982.774 - 0.017ms returns 0
T46B0 000:982.786 JLINK_WriteReg(R5, 0x00000000)
T46B0 000:982.798 - 0.016ms returns 0
T46B0 000:982.810 JLINK_WriteReg(R6, 0x00000000)
T46B0 000:982.822 - 0.017ms returns 0
T46B0 000:982.834 JLINK_WriteReg(R7, 0x00000000)
T46B0 000:982.846 - 0.017ms returns 0
T46B0 000:982.858 JLINK_WriteReg(R8, 0x00000000)
T46B0 000:982.894 - 0.042ms returns 0
T46B0 000:982.908 JLINK_WriteReg(R9, 0x20000180)
T46B0 000:982.920 - 0.016ms returns 0
T46B0 000:982.931 JLINK_WriteReg(R10, 0x00000000)
T46B0 000:982.940 - 0.014ms returns 0
T46B0 000:982.951 JLINK_WriteReg(R11, 0x00000000)
T46B0 000:982.961 - 0.014ms returns 0
T46B0 000:982.972 JLINK_WriteReg(R12, 0x00000000)
T46B0 000:982.988 - 0.021ms returns 0
T46B0 000:982.999 JLINK_WriteReg(R13 (SP), 0x20001000)
T46B0 000:983.009 - 0.015ms returns 0
T46B0 000:983.020 JLINK_WriteReg(R14, 0x20000001)
T46B0 000:983.030 - 0.014ms returns 0
T46B0 000:983.040 JLINK_WriteReg(R15 (PC), 0x20000054)
T46B0 000:983.057 - 0.021ms returns 0
T46B0 000:983.068 JLINK_WriteReg(XPSR, 0x01000000)
T46B0 000:983.078 - 0.014ms returns 0
T46B0 000:983.088 JLINK_WriteReg(MSP, 0x20001000)
T46B0 000:983.098 - 0.014ms returns 0
T46B0 000:983.109 JLINK_WriteReg(PSP, 0x20001000)
T46B0 000:983.118 - 0.014ms returns 0
T46B0 000:983.129 JLINK_WriteReg(CFBP, 0x00000000)
T46B0 000:983.139 - 0.014ms returns 0
T46B0 000:983.149 JLINK_SetBPEx(Addr = 0x20000000, Type = 0xFFFFFFF2)
T46B0 000:983.166   CPU_ReadMem(2 bytes @ 0x20000000)
T46B0 000:986.554 - 3.438ms returns 0x00000001
T46B0 000:986.604 JLINK_Go()
T46B0 000:986.625   CPU_WriteMem(2 bytes @ 0x20000000)
T46B0 000:989.570   CPU_ReadMem(4 bytes @ 0xE0001000)
T46B0 000:993.548   CPU_WriteMem(4 bytes @ 0xE0002008)
T46B0 000:993.588   CPU_WriteMem(4 bytes @ 0xE000200C)
T46B0 000:993.604   CPU_WriteMem(4 bytes @ 0xE0002010)
T46B0 000:993.621   CPU_WriteMem(4 bytes @ 0xE0002014)
T46B0 000:993.637   CPU_WriteMem(4 bytes @ 0xE0002018)
T46B0 000:993.653   CPU_WriteMem(4 bytes @ 0xE000201C)
T46B0 001:001.560   CPU_WriteMem(4 bytes @ 0xE0001004)
T46B0 001:015.589 - 29.010ms
T46B0 001:015.630 JLINK_IsHalted()
T46B0 001:039.660   CPU_ReadMem(2 bytes @ 0x20000000)
T46B0 001:043.548 - 27.942ms returns TRUE
T46B0 001:043.590 JLINK_ReadReg(R15 (PC))
T46B0 001:043.607 - 0.022ms returns 0x20000000
T46B0 001:043.622 JLINK_ClrBPEx(BPHandle = 0x00000001)
T46B0 001:043.634 - 0.018ms returns 0x00
T46B0 001:043.649 JLINK_ReadReg(R0)
T46B0 001:043.661 - 0.017ms returns 0x00000000
T46B0 001:044.137 JLINK_HasError()
T46B0 001:044.154 JLINK_WriteReg(R0, 0x08000000)
T46B0 001:044.166 - 0.017ms returns 0
T46B0 001:044.177 JLINK_WriteReg(R1, 0x00004000)
T46B0 001:044.187 - 0.014ms returns 0
T46B0 001:044.198 JLINK_WriteReg(R2, 0x000000FF)
T46B0 001:044.208 - 0.014ms returns 0
T46B0 001:044.218 JLINK_WriteReg(R3, 0x00000000)
T46B0 001:044.228 - 0.014ms returns 0
T46B0 001:044.239 JLINK_WriteReg(R4, 0x00000000)
T46B0 001:044.248 - 0.014ms returns 0
T46B0 001:044.259 JLINK_WriteReg(R5, 0x00000000)
T46B0 001:044.269 - 0.014ms returns 0
T46B0 001:044.279 JLINK_WriteReg(R6, 0x00000000)
T46B0 001:044.289 - 0.014ms returns 0
T46B0 001:044.299 JLINK_WriteReg(R7, 0x00000000)
T46B0 001:044.309 - 0.014ms returns 0
T46B0 001:044.320 JLINK_WriteReg(R8, 0x00000000)
T46B0 001:044.329 - 0.014ms returns 0
T46B0 001:044.340 JLINK_WriteReg(R9, 0x20000180)
T46B0 001:044.350 - 0.014ms returns 0
T46B0 001:044.360 JLINK_WriteReg(R10, 0x00000000)
T46B0 001:044.370 - 0.014ms returns 0
T46B0 001:044.380 JLINK_WriteReg(R11, 0x00000000)
T46B0 001:044.390 - 0.014ms returns 0
T46B0 001:044.402 JLINK_WriteReg(R12, 0x00000000)
T46B0 001:044.412 - 0.014ms returns 0
T46B0 001:044.422 JLINK_WriteReg(R13 (SP), 0x20001000)
T46B0 001:044.433 - 0.015ms returns 0
T46B0 001:044.443 JLINK_WriteReg(R14, 0x20000001)
T46B0 001:044.456 - 0.019ms returns 0
T46B0 001:044.470 JLINK_WriteReg(R15 (PC), 0x20000020)
T46B0 001:044.481 - 0.017ms returns 0
T46B0 001:044.494 JLINK_WriteReg(XPSR, 0x01000000)
T46B0 001:044.506 - 0.016ms returns 0
T46B0 001:044.516 JLINK_WriteReg(MSP, 0x20001000)
T46B0 001:044.526 - 0.014ms returns 0
T46B0 001:044.537 JLINK_WriteReg(PSP, 0x20001000)
T46B0 001:044.547 - 0.014ms returns 0
T46B0 001:044.557 JLINK_WriteReg(CFBP, 0x00000000)
T46B0 001:044.567 - 0.014ms returns 0
T46B0 001:044.578 JLINK_SetBPEx(Addr = 0x20000000, Type = 0xFFFFFFF2)
T46B0 001:044.589 - 0.016ms returns 0x00000002
T46B0 001:044.600 JLINK_Go()
T46B0 001:044.622   CPU_ReadMem(4 bytes @ 0xE0001000)
T46B0 001:059.610 - 15.037ms
T46B0 001:059.650 JLINK_IsHalted()
T46B0 001:083.689   CPU_ReadMem(2 bytes @ 0x20000000)
T46B0 001:087.542 - 27.909ms returns TRUE
T46B0 001:087.575 JLINK_ReadReg(R15 (PC))
T46B0 001:087.671 - 0.107ms returns 0x20000000
T46B0 001:087.693 JLINK_ClrBPEx(BPHandle = 0x00000002)
T46B0 001:087.705 - 0.017ms returns 0x00
T46B0 001:087.719 JLINK_ReadReg(R0)
T46B0 001:087.731 - 0.017ms returns 0x00000001
T46B0 001:087.746 JLINK_HasError()
T46B0 001:087.761 JLINK_WriteReg(R0, 0x08000000)
T46B0 001:087.773 - 0.018ms returns 0
T46B0 001:087.787 JLINK_WriteReg(R1, 0x00004000)
T46B0 001:087.799 - 0.017ms returns 0
T46B0 001:087.813 JLINK_WriteReg(R2, 0x000000FF)
T46B0 001:087.825 - 0.017ms returns 0
T46B0 001:087.839 JLINK_WriteReg(R3, 0x00000000)
T46B0 001:087.851 - 0.017ms returns 0
T46B0 001:087.864 JLINK_WriteReg(R4, 0x00000000)
T46B0 001:087.876 - 0.017ms returns 0
T46B0 001:087.890 JLINK_WriteReg(R5, 0x00000000)
T46B0 001:087.901 - 0.016ms returns 0
T46B0 001:087.915 JLINK_WriteReg(R6, 0x00000000)
T46B0 001:087.927 - 0.017ms returns 0
T46B0 001:087.941 JLINK_WriteReg(R7, 0x00000000)
T46B0 001:087.952 - 0.015ms returns 0
T46B0 001:087.965 JLINK_WriteReg(R8, 0x00000000)
T46B0 001:087.975 - 0.015ms returns 0
T46B0 001:087.987 JLINK_WriteReg(R9, 0x20000180)
T46B0 001:087.997 - 0.014ms returns 0
T46B0 001:088.009 JLINK_WriteReg(R10, 0x00000000)
T46B0 001:088.019 - 0.014ms returns 0
T46B0 001:088.031 JLINK_WriteReg(R11, 0x00000000)
T46B0 001:088.044 - 0.018ms returns 0
T46B0 001:088.056 JLINK_WriteReg(R12, 0x00000000)
T46B0 001:088.066 - 0.014ms returns 0
T46B0 001:088.078 JLINK_WriteReg(R13 (SP), 0x20001000)
T46B0 001:088.088 - 0.015ms returns 0
T46B0 001:088.101 JLINK_WriteReg(R14, 0x20000001)
T46B0 001:088.114 - 0.018ms returns 0
T46B0 001:088.127 JLINK_WriteReg(R15 (PC), 0x200000C0)
T46B0 001:088.139 - 0.017ms returns 0
T46B0 001:088.153 JLINK_WriteReg(XPSR, 0x01000000)
T46B0 001:088.165 - 0.017ms returns 0
T46B0 001:088.178 JLINK_WriteReg(MSP, 0x20001000)
T46B0 001:088.190 - 0.017ms returns 0
T46B0 001:088.202 JLINK_WriteReg(PSP, 0x20001000)
T46B0 001:088.212 - 0.014ms returns 0
T46B0 001:088.225 JLINK_WriteReg(CFBP, 0x00000000)
T46B0 001:088.235 - 0.014ms returns 0
T46B0 001:088.247 JLINK_SetBPEx(Addr = 0x20000000, Type = 0xFFFFFFF2)
T46B0 001:088.259 - 0.015ms returns 0x00000003
T46B0 001:088.271 JLINK_Go()
T46B0 001:088.291   CPU_ReadMem(4 bytes @ 0xE0001000)
T46B0 001:102.594 - 14.350ms
T46B0 001:102.640 JLINK_IsHalted()
T46B0 001:106.536 - 3.913ms returns FALSE
T46B0 001:106.567 JLINK_HasError()
T46B0 001:136.573 JLINK_IsHalted()
T46B0 001:140.555 - 4.013ms returns FALSE
T46B0 001:140.602 JLINK_HasError()
T46B0 001:142.569 JLINK_IsHalted()
T46B0 001:146.551 - 4.015ms returns FALSE
T46B0 001:146.600 JLINK_HasError()
T46B0 001:148.580 JLINK_IsHalted()
T46B0 001:152.536 - 3.977ms returns FALSE
T46B0 001:152.570 JLINK_HasError()
T46B0 001:154.590 JLINK_IsHalted()
T46B0 001:158.554 - 3.988ms returns FALSE
T46B0 001:158.593 JLINK_HasError()
T46B0 001:161.019 JLINK_IsHalted()
T46B0 001:164.533 - 3.531ms returns FALSE
T46B0 001:164.560 JLINK_HasError()
T46B0 001:167.003 JLINK_IsHalted()
T46B0 001:170.537 - 3.555ms returns FALSE
T46B0 001:170.570 JLINK_HasError()
T46B0 001:172.054 JLINK_IsHalted()
T46B0 001:175.527 - 3.483ms returns FALSE
T46B0 001:175.545 JLINK_HasError()
T46B0 001:177.057 JLINK_IsHalted()
T46B0 001:180.529 - 3.483ms returns FALSE
T46B0 001:180.549 JLINK_HasError()
T46B0 001:181.614 JLINK_IsHalted()
T46B0 001:185.529 - 3.926ms returns FALSE
T46B0 001:185.552 JLINK_HasError()
T46B0 001:186.610 JLINK_IsHalted()
T46B0 001:190.544 - 3.948ms returns FALSE
T46B0 001:190.568 JLINK_HasError()
T46B0 001:192.633 JLINK_IsHalted()
T46B0 001:196.546 - 3.927ms returns FALSE
T46B0 001:196.570 JLINK_HasError()
T46B0 001:198.627 JLINK_IsHalted()
T46B0 001:202.547 - 3.938ms returns FALSE
T46B0 001:202.577 JLINK_HasError()
T46B0 001:203.678 JLINK_IsHalted()
T46B0 001:207.546 - 3.882ms returns FALSE
T46B0 001:207.571 JLINK_HasError()
T46B0 001:208.700 JLINK_IsHalted()
T46B0 001:212.543 - 3.856ms returns FALSE
T46B0 001:212.569 JLINK_HasError()
T46B0 001:213.683 JLINK_IsHalted()
T46B0 001:217.541 - 3.950ms returns FALSE
T46B0 001:217.649 JLINK_HasError()
T46B0 001:219.693 JLINK_IsHalted()
T46B0 001:223.533 - 3.853ms returns FALSE
T46B0 001:223.558 JLINK_HasError()
T46B0 001:225.473 JLINK_IsHalted()
T46B0 001:228.534 - 3.073ms returns FALSE
T46B0 001:228.557 JLINK_HasError()
T46B0 001:230.493 JLINK_IsHalted()
T46B0 001:234.542 - 4.073ms returns FALSE
T46B0 001:234.579 JLINK_HasError()
T46B0 001:236.510 JLINK_IsHalted()
T46B0 001:240.537 - 4.052ms returns FALSE
T46B0 001:240.577 JLINK_HasError()
T46B0 001:241.741 JLINK_IsHalted()
T46B0 001:245.541 - 3.813ms returns FALSE
T46B0 001:245.564 JLINK_HasError()
T46B0 001:246.738 JLINK_IsHalted()
T46B0 001:250.533 - 3.813ms returns FALSE
T46B0 001:250.562 JLINK_HasError()
T46B0 001:251.744 JLINK_IsHalted()
T46B0 001:255.544 - 3.814ms returns FALSE
T46B0 001:255.569 JLINK_HasError()
T46B0 001:256.754 JLINK_IsHalted()
T46B0 001:260.530 - 3.788ms returns FALSE
T46B0 001:260.553 JLINK_HasError()
T46B0 001:261.870 JLINK_IsHalted()
T46B0 001:265.529 - 3.670ms returns FALSE
T46B0 001:265.552 JLINK_HasError()
T46B0 001:266.874 JLINK_IsHalted()
T46B0 001:270.538 - 3.688ms returns FALSE
T46B0 001:270.577 JLINK_HasError()
T46B0 001:272.479 JLINK_IsHalted()
T46B0 001:276.532 - 4.065ms returns FALSE
T46B0 001:276.555 JLINK_HasError()
T46B0 001:279.497 JLINK_IsHalted()
T46B0 001:283.542 - 4.070ms returns FALSE
T46B0 001:283.580 JLINK_HasError()
T46B0 001:285.480 JLINK_IsHalted()
T46B0 001:309.716   CPU_ReadMem(2 bytes @ 0x20000000)
T46B0 001:313.543 - 28.082ms returns TRUE
T46B0 001:313.578 JLINK_ReadReg(R15 (PC))
T46B0 001:313.593 - 0.019ms returns 0x20000000
T46B0 001:313.606 JLINK_ClrBPEx(BPHandle = 0x00000003)
T46B0 001:313.617 - 0.015ms returns 0x00
T46B0 001:313.630 JLINK_ReadReg(R0)
T46B0 001:313.640 - 0.015ms returns 0x00000000
T46B0 001:314.616 JLINK_HasError()
T46B0 001:314.652 JLINK_WriteReg(R0, 0x08004000)
T46B0 001:314.671 - 0.025ms returns 0
T46B0 001:314.685 JLINK_WriteReg(R1, 0x00004000)
T46B0 001:314.696 - 0.015ms returns 0
T46B0 001:314.707 JLINK_WriteReg(R2, 0x000000FF)
T46B0 001:314.717 - 0.014ms returns 0
T46B0 001:314.727 JLINK_WriteReg(R3, 0x00000000)
T46B0 001:314.737 - 0.014ms returns 0
T46B0 001:314.748 JLINK_WriteReg(R4, 0x00000000)
T46B0 001:314.758 - 0.014ms returns 0
T46B0 001:314.769 JLINK_WriteReg(R5, 0x00000000)
T46B0 001:314.780 - 0.016ms returns 0
T46B0 001:314.791 JLINK_WriteReg(R6, 0x00000000)
T46B0 001:314.801 - 0.014ms returns 0
T46B0 001:314.812 JLINK_WriteReg(R7, 0x00000000)
T46B0 001:314.822 - 0.014ms returns 0
T46B0 001:314.832 JLINK_WriteReg(R8, 0x00000000)
T46B0 001:314.842 - 0.014ms returns 0
T46B0 001:314.853 JLINK_WriteReg(R9, 0x20000180)
T46B0 001:314.863 - 0.014ms returns 0
T46B0 001:314.873 JLINK_WriteReg(R10, 0x00000000)
T46B0 001:314.883 - 0.014ms returns 0
T46B0 001:314.894 JLINK_WriteReg(R11, 0x00000000)
T46B0 001:314.904 - 0.016ms returns 0
T46B0 001:314.917 JLINK_WriteReg(R12, 0x00000000)
T46B0 001:314.927 - 0.014ms returns 0
T46B0 001:314.938 JLINK_WriteReg(R13 (SP), 0x20001000)
T46B0 001:314.948 - 0.015ms returns 0
T46B0 001:314.959 JLINK_WriteReg(R14, 0x20000001)
T46B0 001:314.969 - 0.014ms returns 0
T46B0 001:314.979 JLINK_WriteReg(R15 (PC), 0x20000020)
T46B0 001:314.989 - 0.014ms returns 0
T46B0 001:315.000 JLINK_WriteReg(XPSR, 0x01000000)
T46B0 001:315.010 - 0.014ms returns 0
T46B0 001:315.020 JLINK_WriteReg(MSP, 0x20001000)
T46B0 001:315.030 - 0.014ms returns 0
T46B0 001:315.041 JLINK_WriteReg(PSP, 0x20001000)
T46B0 001:315.050 - 0.014ms returns 0
T46B0 001:315.061 JLINK_WriteReg(CFBP, 0x00000000)
T46B0 001:315.071 - 0.014ms returns 0
T46B0 001:315.081 JLINK_SetBPEx(Addr = 0x20000000, Type = 0xFFFFFFF2)
T46B0 001:315.093 - 0.016ms returns 0x00000004
T46B0 001:315.104 JLINK_Go()
T46B0 001:315.127   CPU_ReadMem(4 bytes @ 0xE0001000)
T46B0 001:329.597 - 14.520ms
T46B0 001:329.637 JLINK_IsHalted()
T46B0 001:353.634   CPU_ReadMem(2 bytes @ 0x20000000)
T46B0 001:357.538 - 27.922ms returns TRUE
T46B0 001:357.577 JLINK_ReadReg(R15 (PC))
T46B0 001:357.677 - 0.110ms returns 0x20000000
T46B0 001:357.696 JLINK_ClrBPEx(BPHandle = 0x00000004)
T46B0 001:357.707 - 0.015ms returns 0x00
T46B0 001:357.719 JLINK_ReadReg(R0)
T46B0 001:357.729 - 0.014ms returns 0x00000001
T46B0 001:357.742 JLINK_HasError()
T46B0 001:357.755 JLINK_WriteReg(R0, 0x08004000)
T46B0 001:357.765 - 0.015ms returns 0
T46B0 001:357.778 JLINK_WriteReg(R1, 0x00004000)
T46B0 001:357.788 - 0.014ms returns 0
T46B0 001:357.799 JLINK_WriteReg(R2, 0x000000FF)
T46B0 001:357.809 - 0.014ms returns 0
T46B0 001:357.821 JLINK_WriteReg(R3, 0x00000000)
T46B0 001:357.831 - 0.014ms returns 0
T46B0 001:357.843 JLINK_WriteReg(R4, 0x00000000)
T46B0 001:357.853 - 0.014ms returns 0
T46B0 001:357.864 JLINK_WriteReg(R5, 0x00000000)
T46B0 001:357.874 - 0.014ms returns 0
T46B0 001:357.886 JLINK_WriteReg(R6, 0x00000000)
T46B0 001:357.896 - 0.014ms returns 0
T46B0 001:357.908 JLINK_WriteReg(R7, 0x00000000)
T46B0 001:357.917 - 0.014ms returns 0
T46B0 001:357.929 JLINK_WriteReg(R8, 0x00000000)
T46B0 001:357.939 - 0.014ms returns 0
T46B0 001:357.951 JLINK_WriteReg(R9, 0x20000180)
T46B0 001:357.961 - 0.014ms returns 0
T46B0 001:357.972 JLINK_WriteReg(R10, 0x00000000)
T46B0 001:357.982 - 0.014ms returns 0
T46B0 001:357.994 JLINK_WriteReg(R11, 0x00000000)
T46B0 001:358.004 - 0.014ms returns 0
T46B0 001:358.016 JLINK_WriteReg(R12, 0x00000000)
T46B0 001:358.025 - 0.014ms returns 0
T46B0 001:358.037 JLINK_WriteReg(R13 (SP), 0x20001000)
T46B0 001:358.047 - 0.014ms returns 0
T46B0 001:358.059 JLINK_WriteReg(R14, 0x20000001)
T46B0 001:358.069 - 0.014ms returns 0
T46B0 001:358.081 JLINK_WriteReg(R15 (PC), 0x200000C0)
T46B0 001:358.091 - 0.014ms returns 0
T46B0 001:358.102 JLINK_WriteReg(XPSR, 0x01000000)
T46B0 001:358.112 - 0.014ms returns 0
T46B0 001:358.124 JLINK_WriteReg(MSP, 0x20001000)
T46B0 001:358.134 - 0.014ms returns 0
T46B0 001:358.146 JLINK_WriteReg(PSP, 0x20001000)
T46B0 001:358.155 - 0.014ms returns 0
T46B0 001:358.167 JLINK_WriteReg(CFBP, 0x00000000)
T46B0 001:358.177 - 0.014ms returns 0
T46B0 001:358.189 JLINK_SetBPEx(Addr = 0x20000000, Type = 0xFFFFFFF2)
T46B0 001:358.200 - 0.015ms returns 0x00000005
T46B0 001:358.212 JLINK_Go()
T46B0 001:358.232   CPU_ReadMem(4 bytes @ 0xE0001000)
T46B0 001:372.587 - 14.401ms
T46B0 001:372.629 JLINK_IsHalted()
T46B0 001:376.551 - 3.942ms returns FALSE
T46B0 001:376.587 JLINK_HasError()
T46B0 001:402.620 JLINK_IsHalted()
T46B0 001:406.554 - 3.952ms returns FALSE
T46B0 001:406.584 JLINK_HasError()
T46B0 001:417.627 JLINK_IsHalted()
T46B0 001:421.539 - 3.932ms returns FALSE
T46B0 001:421.571 JLINK_HasError()
T46B0 001:428.647 JLINK_IsHalted()
T46B0 001:431.541 - 2.909ms returns FALSE
T46B0 001:431.566 JLINK_HasError()
T46B0 001:438.662 JLINK_IsHalted()
T46B0 001:442.537 - 3.899ms returns FALSE
T46B0 001:442.574 JLINK_HasError()
T46B0 001:445.651 JLINK_IsHalted()
T46B0 001:449.539 - 3.901ms returns FALSE
T46B0 001:449.562 JLINK_HasError()
T46B0 001:452.664 JLINK_IsHalted()
T46B0 001:456.535 - 3.891ms returns FALSE
T46B0 001:456.566 JLINK_HasError()
T46B0 001:457.667 JLINK_IsHalted()
T46B0 001:461.536 - 3.891ms returns FALSE
T46B0 001:461.570 JLINK_HasError()
T46B0 001:462.666 JLINK_IsHalted()
T46B0 001:466.530 - 3.874ms returns FALSE
T46B0 001:466.548 JLINK_HasError()
T46B0 001:467.677 JLINK_IsHalted()
T46B0 001:471.532 - 3.866ms returns FALSE
T46B0 001:471.553 JLINK_HasError()
T46B0 001:472.675 JLINK_IsHalted()
T46B0 001:476.537 - 3.875ms returns FALSE
T46B0 001:476.560 JLINK_HasError()
T46B0 001:477.680 JLINK_IsHalted()
T46B0 001:481.533 - 3.867ms returns FALSE
T46B0 001:481.557 JLINK_HasError()
T46B0 001:484.709 JLINK_IsHalted()
T46B0 001:488.549 - 3.864ms returns FALSE
T46B0 001:488.586 JLINK_HasError()
T46B0 001:496.380 JLINK_IsHalted()
T46B0 001:499.557 - 3.188ms returns FALSE
T46B0 001:499.578 JLINK_HasError()
T46B0 001:504.374 JLINK_IsHalted()
T46B0 001:507.546 - 3.194ms returns FALSE
T46B0 001:507.579 JLINK_HasError()
T46B0 001:516.406 JLINK_IsHalted()
T46B0 001:519.532 - 3.140ms returns FALSE
T46B0 001:519.564 JLINK_HasError()
T46B0 001:526.393 JLINK_IsHalted()
T46B0 001:529.530 - 3.149ms returns FALSE
T46B0 001:529.555 JLINK_HasError()
T46B0 001:536.414 JLINK_IsHalted()
T46B0 001:539.546 - 3.160ms returns FALSE
T46B0 001:539.587 JLINK_HasError()
T46B0 001:550.437 JLINK_IsHalted()
T46B0 001:573.687   CPU_ReadMem(2 bytes @ 0x20000000)
T46B0 001:576.536 - 26.113ms returns TRUE
T46B0 001:576.565 JLINK_ReadReg(R15 (PC))
T46B0 001:576.582 - 0.022ms returns 0x20000000
T46B0 001:576.596 JLINK_ClrBPEx(BPHandle = 0x00000005)
T46B0 001:576.609 - 0.017ms returns 0x00
T46B0 001:576.623 JLINK_ReadReg(R0)
T46B0 001:576.635 - 0.017ms returns 0x00000000
T46B0 001:577.379 JLINK_HasError()
T46B0 001:577.396 JLINK_WriteReg(R0, 0x08008000)
T46B0 001:577.408 - 0.017ms returns 0
T46B0 001:577.419 JLINK_WriteReg(R1, 0x00004000)
T46B0 001:577.429 - 0.014ms returns 0
T46B0 001:577.445 JLINK_WriteReg(R2, 0x000000FF)
T46B0 001:577.461 - 0.024ms returns 0
T46B0 001:577.478 JLINK_WriteReg(R3, 0x00000000)
T46B0 001:577.489 - 0.014ms returns 0
T46B0 001:577.499 JLINK_WriteReg(R4, 0x00000000)
T46B0 001:577.509 - 0.014ms returns 0
T46B0 001:577.520 JLINK_WriteReg(R5, 0x00000000)
T46B0 001:577.530 - 0.014ms returns 0
T46B0 001:577.541 JLINK_WriteReg(R6, 0x00000000)
T46B0 001:577.551 - 0.014ms returns 0
T46B0 001:577.561 JLINK_WriteReg(R7, 0x00000000)
T46B0 001:577.571 - 0.014ms returns 0
T46B0 001:577.582 JLINK_WriteReg(R8, 0x00000000)
T46B0 001:577.592 - 0.014ms returns 0
T46B0 001:577.602 JLINK_WriteReg(R9, 0x20000180)
T46B0 001:577.612 - 0.014ms returns 0
T46B0 001:577.622 JLINK_WriteReg(R10, 0x00000000)
T46B0 001:577.632 - 0.014ms returns 0
T46B0 001:577.643 JLINK_WriteReg(R11, 0x00000000)
T46B0 001:577.652 - 0.014ms returns 0
T46B0 001:577.663 JLINK_WriteReg(R12, 0x00000000)
T46B0 001:577.673 - 0.014ms returns 0
T46B0 001:577.683 JLINK_WriteReg(R13 (SP), 0x20001000)
T46B0 001:577.694 - 0.014ms returns 0
T46B0 001:577.704 JLINK_WriteReg(R14, 0x20000001)
T46B0 001:577.714 - 0.014ms returns 0
T46B0 001:577.724 JLINK_WriteReg(R15 (PC), 0x20000020)
T46B0 001:577.734 - 0.014ms returns 0
T46B0 001:577.745 JLINK_WriteReg(XPSR, 0x01000000)
T46B0 001:577.754 - 0.014ms returns 0
T46B0 001:577.765 JLINK_WriteReg(MSP, 0x20001000)
T46B0 001:577.775 - 0.014ms returns 0
T46B0 001:577.785 JLINK_WriteReg(PSP, 0x20001000)
T46B0 001:577.795 - 0.014ms returns 0
T46B0 001:577.805 JLINK_WriteReg(CFBP, 0x00000000)
T46B0 001:577.815 - 0.014ms returns 0
T46B0 001:577.826 JLINK_SetBPEx(Addr = 0x20000000, Type = 0xFFFFFFF2)
T46B0 001:577.837 - 0.015ms returns 0x00000006
T46B0 001:577.848 JLINK_Go()
T46B0 001:577.869   CPU_ReadMem(4 bytes @ 0xE0001000)
T46B0 001:592.595 - 14.773ms
T46B0 001:592.634 JLINK_IsHalted()
T46B0 001:616.674   CPU_ReadMem(2 bytes @ 0x20000000)
T46B0 001:620.565 - 27.958ms returns TRUE
T46B0 001:620.610 JLINK_ReadReg(R15 (PC))
T46B0 001:620.628 - 0.022ms returns 0x20000000
T46B0 001:620.643 JLINK_ClrBPEx(BPHandle = 0x00000006)
T46B0 001:620.655 - 0.018ms returns 0x00
T46B0 001:620.671 JLINK_ReadReg(R0)
T46B0 001:620.683 - 0.017ms returns 0x00000001
T46B0 001:620.698 JLINK_HasError()
T46B0 001:620.713 JLINK_WriteReg(R0, 0x08008000)
T46B0 001:620.726 - 0.018ms returns 0
T46B0 001:620.740 JLINK_WriteReg(R1, 0x00004000)
T46B0 001:620.752 - 0.016ms returns 0
T46B0 001:620.766 JLINK_WriteReg(R2, 0x000000FF)
T46B0 001:620.778 - 0.016ms returns 0
T46B0 001:620.792 JLINK_WriteReg(R3, 0x00000000)
T46B0 001:620.803 - 0.016ms returns 0
T46B0 001:620.817 JLINK_WriteReg(R4, 0x00000000)
T46B0 001:620.829 - 0.016ms returns 0
T46B0 001:620.843 JLINK_WriteReg(R5, 0x00000000)
T46B0 001:620.854 - 0.016ms returns 0
T46B0 001:620.868 JLINK_WriteReg(R6, 0x00000000)
T46B0 001:620.880 - 0.016ms returns 0
T46B0 001:620.894 JLINK_WriteReg(R7, 0x00000000)
T46B0 001:620.905 - 0.016ms returns 0
T46B0 001:620.917 JLINK_WriteReg(R8, 0x00000000)
T46B0 001:620.927 - 0.014ms returns 0
T46B0 001:620.939 JLINK_WriteReg(R9, 0x20000180)
T46B0 001:620.949 - 0.014ms returns 0
T46B0 001:620.966 JLINK_WriteReg(R10, 0x00000000)
T46B0 001:620.980 - 0.018ms returns 0
T46B0 001:620.992 JLINK_WriteReg(R11, 0x00000000)
T46B0 001:621.002 - 0.014ms returns 0
T46B0 001:621.014 JLINK_WriteReg(R12, 0x00000000)
T46B0 001:621.024 - 0.014ms returns 0
T46B0 001:621.036 JLINK_WriteReg(R13 (SP), 0x20001000)
T46B0 001:621.046 - 0.014ms returns 0
T46B0 001:621.058 JLINK_WriteReg(R14, 0x20000001)
T46B0 001:621.068 - 0.014ms returns 0
T46B0 001:621.081 JLINK_WriteReg(R15 (PC), 0x200000C0)
T46B0 001:621.090 - 0.014ms returns 0
T46B0 001:621.103 JLINK_WriteReg(XPSR, 0x01000000)
T46B0 001:621.112 - 0.014ms returns 0
T46B0 001:621.125 JLINK_WriteReg(MSP, 0x20001000)
T46B0 001:621.134 - 0.014ms returns 0
T46B0 001:621.147 JLINK_WriteReg(PSP, 0x20001000)
T46B0 001:621.157 - 0.014ms returns 0
T46B0 001:621.169 JLINK_WriteReg(CFBP, 0x00000000)
T46B0 001:621.179 - 0.014ms returns 0
T46B0 001:621.191 JLINK_SetBPEx(Addr = 0x20000000, Type = 0xFFFFFFF2)
T46B0 001:621.202 - 0.015ms returns 0x00000007
T46B0 001:621.214 JLINK_Go()
T46B0 001:621.235   CPU_ReadMem(4 bytes @ 0xE0001000)
T46B0 001:635.573 - 14.382ms
T46B0 001:635.612 JLINK_IsHalted()
T46B0 001:639.550 - 3.951ms returns FALSE
T46B0 001:639.577 JLINK_HasError()
T46B0 001:647.542 JLINK_IsHalted()
T46B0 001:651.537 - 4.020ms returns FALSE
T46B0 001:651.574 JLINK_HasError()
T46B0 001:654.531 JLINK_IsHalted()
T46B0 001:658.548 - 4.043ms returns FALSE
T46B0 001:658.588 JLINK_HasError()
T46B0 001:661.783 JLINK_IsHalted()
T46B0 001:665.531 - 3.764ms returns FALSE
T46B0 001:665.561 JLINK_HasError()
T46B0 001:668.803 JLINK_IsHalted()
T46B0 001:671.535 - 2.752ms returns FALSE
T46B0 001:671.566 JLINK_HasError()
T46B0 001:675.006 JLINK_IsHalted()
T46B0 001:678.534 - 3.551ms returns FALSE
T46B0 001:678.568 JLINK_HasError()
T46B0 001:681.786 JLINK_IsHalted()
T46B0 001:685.572 - 3.809ms returns FALSE
T46B0 001:685.608 JLINK_HasError()
T46B0 001:686.800 JLINK_IsHalted()
T46B0 001:689.538 - 2.750ms returns FALSE
T46B0 001:689.560 JLINK_HasError()
T46B0 001:691.323 JLINK_IsHalted()
T46B0 001:694.528 - 3.217ms returns FALSE
T46B0 001:694.548 JLINK_HasError()
T46B0 001:698.343 JLINK_IsHalted()
T46B0 001:701.529 - 3.208ms returns FALSE
T46B0 001:701.564 JLINK_HasError()
T46B0 001:706.365 JLINK_IsHalted()
T46B0 001:708.539 - 2.199ms returns FALSE
T46B0 001:708.578 JLINK_HasError()
T46B0 001:710.350 JLINK_IsHalted()
T46B0 001:713.531 - 3.197ms returns FALSE
T46B0 001:713.558 JLINK_HasError()
T46B0 001:717.345 JLINK_IsHalted()
T46B0 001:720.537 - 3.207ms returns FALSE
T46B0 001:720.564 JLINK_HasError()
T46B0 001:723.352 JLINK_IsHalted()
T46B0 001:726.566 - 3.230ms returns FALSE
T46B0 001:726.593 JLINK_HasError()
T46B0 001:733.360 JLINK_IsHalted()
T46B0 001:756.701   CPU_ReadMem(2 bytes @ 0x20000000)
T46B0 001:760.537 - 27.191ms returns TRUE
T46B0 001:760.567 JLINK_ReadReg(R15 (PC))
T46B0 001:760.583 - 0.021ms returns 0x20000000
T46B0 001:760.598 JLINK_ClrBPEx(BPHandle = 0x00000007)
T46B0 001:760.610 - 0.017ms returns 0x00
T46B0 001:760.624 JLINK_ReadReg(R0)
T46B0 001:760.636 - 0.017ms returns 0x00000000
T46B0 001:761.113 JLINK_HasError()
T46B0 001:761.130 JLINK_WriteReg(R0, 0x00000001)
T46B0 001:761.142 - 0.016ms returns 0
T46B0 001:761.153 JLINK_WriteReg(R1, 0x00004000)
T46B0 001:761.163 - 0.014ms returns 0
T46B0 001:761.174 JLINK_WriteReg(R2, 0x000000FF)
T46B0 001:761.184 - 0.014ms returns 0
T46B0 001:761.194 JLINK_WriteReg(R3, 0x00000000)
T46B0 001:761.204 - 0.014ms returns 0
T46B0 001:761.215 JLINK_WriteReg(R4, 0x00000000)
T46B0 001:761.224 - 0.014ms returns 0
T46B0 001:761.235 JLINK_WriteReg(R5, 0x00000000)
T46B0 001:761.245 - 0.014ms returns 0
T46B0 001:761.255 JLINK_WriteReg(R6, 0x00000000)
T46B0 001:761.265 - 0.014ms returns 0
T46B0 001:761.275 JLINK_WriteReg(R7, 0x00000000)
T46B0 001:761.285 - 0.014ms returns 0
T46B0 001:761.296 JLINK_WriteReg(R8, 0x00000000)
T46B0 001:761.305 - 0.014ms returns 0
T46B0 001:761.316 JLINK_WriteReg(R9, 0x20000180)
T46B0 001:761.326 - 0.014ms returns 0
T46B0 001:761.336 JLINK_WriteReg(R10, 0x00000000)
T46B0 001:761.357 - 0.025ms returns 0
T46B0 001:761.368 JLINK_WriteReg(R11, 0x00000000)
T46B0 001:761.381 - 0.021ms returns 0
T46B0 001:761.399 JLINK_WriteReg(R12, 0x00000000)
T46B0 001:761.416 - 0.023ms returns 0
T46B0 001:761.429 JLINK_WriteReg(R13 (SP), 0x20001000)
T46B0 001:761.439 - 0.015ms returns 0
T46B0 001:761.449 JLINK_WriteReg(R14, 0x20000001)
T46B0 001:761.459 - 0.014ms returns 0
T46B0 001:761.470 JLINK_WriteReg(R15 (PC), 0x20000086)
T46B0 001:761.480 - 0.014ms returns 0
T46B0 001:761.490 JLINK_WriteReg(XPSR, 0x01000000)
T46B0 001:761.500 - 0.014ms returns 0
T46B0 001:761.511 JLINK_WriteReg(MSP, 0x20001000)
T46B0 001:761.521 - 0.014ms returns 0
T46B0 001:761.531 JLINK_WriteReg(PSP, 0x20001000)
T46B0 001:761.541 - 0.014ms returns 0
T46B0 001:761.551 JLINK_WriteReg(CFBP, 0x00000000)
T46B0 001:761.561 - 0.014ms returns 0
T46B0 001:761.572 JLINK_SetBPEx(Addr = 0x20000000, Type = 0xFFFFFFF2)
T46B0 001:761.583 - 0.015ms returns 0x00000008
T46B0 001:761.594 JLINK_Go()
T46B0 001:761.615   CPU_ReadMem(4 bytes @ 0xE0001000)
T46B0 001:774.603 - 13.033ms
T46B0 001:774.638 JLINK_IsHalted()
T46B0 001:798.685   CPU_ReadMem(2 bytes @ 0x20000000)
T46B0 001:802.546 - 27.929ms returns TRUE
T46B0 001:802.586 JLINK_ReadReg(R15 (PC))
T46B0 001:802.604 - 0.023ms returns 0x20000000
T46B0 001:802.618 JLINK_ClrBPEx(BPHandle = 0x00000008)
T46B0 001:802.631 - 0.018ms returns 0x00
T46B0 001:802.645 JLINK_ReadReg(R0)
T46B0 001:802.657 - 0.017ms returns 0x00000000
T46B0 001:863.119 JLINK_WriteMem(0x20000000, 0x184 Bytes, ...)
T46B0 001:863.142   Data:  00 BE 0A E0 0D 78 2D 06 68 40 08 24 40 00 00 D3 ...
T46B0 001:863.172   CPU_WriteMem(388 bytes @ 0x20000000)
T46B0 001:875.558 - 12.464ms returns 0x184
T46B0 001:875.648 JLINK_HasError()
T46B0 001:875.662 JLINK_WriteReg(R0, 0x08000000)
T46B0 001:875.676 - 0.019ms returns 0
T46B0 001:875.687 JLINK_WriteReg(R1, 0x007A1200)
T46B0 001:875.698 - 0.014ms returns 0
T46B0 001:875.708 JLINK_WriteReg(R2, 0x00000002)
T46B0 001:875.718 - 0.014ms returns 0
T46B0 001:875.729 JLINK_WriteReg(R3, 0x00000000)
T46B0 001:875.739 - 0.014ms returns 0
T46B0 001:875.749 JLINK_WriteReg(R4, 0x00000000)
T46B0 001:875.759 - 0.027ms returns 0
T46B0 001:875.783 JLINK_WriteReg(R5, 0x00000000)
T46B0 001:875.793 - 0.014ms returns 0
T46B0 001:875.803 JLINK_WriteReg(R6, 0x00000000)
T46B0 001:875.813 - 0.014ms returns 0
T46B0 001:875.824 JLINK_WriteReg(R7, 0x00000000)
T46B0 001:875.833 - 0.014ms returns 0
T46B0 001:875.844 JLINK_WriteReg(R8, 0x00000000)
T46B0 001:875.854 - 0.015ms returns 0
T46B0 001:875.865 JLINK_WriteReg(R9, 0x20000180)
T46B0 001:875.875 - 0.014ms returns 0
T46B0 001:875.885 JLINK_WriteReg(R10, 0x00000000)
T46B0 001:875.895 - 0.014ms returns 0
T46B0 001:875.905 JLINK_WriteReg(R11, 0x00000000)
T46B0 001:875.915 - 0.014ms returns 0
T46B0 001:875.926 JLINK_WriteReg(R12, 0x00000000)
T46B0 001:875.936 - 0.014ms returns 0
T46B0 001:875.946 JLINK_WriteReg(R13 (SP), 0x20001000)
T46B0 001:875.957 - 0.015ms returns 0
T46B0 001:875.967 JLINK_WriteReg(R14, 0x20000001)
T46B0 001:875.977 - 0.014ms returns 0
T46B0 001:875.988 JLINK_WriteReg(R15 (PC), 0x20000054)
T46B0 001:875.998 - 0.014ms returns 0
T46B0 001:876.008 JLINK_WriteReg(XPSR, 0x01000000)
T46B0 001:876.018 - 0.014ms returns 0
T46B0 001:876.029 JLINK_WriteReg(MSP, 0x20001000)
T46B0 001:876.039 - 0.014ms returns 0
T46B0 001:876.049 JLINK_WriteReg(PSP, 0x20001000)
T46B0 001:876.059 - 0.014ms returns 0
T46B0 001:876.069 JLINK_WriteReg(CFBP, 0x00000000)
T46B0 001:876.079 - 0.014ms returns 0
T46B0 001:876.090 JLINK_SetBPEx(Addr = 0x20000000, Type = 0xFFFFFFF2)
T46B0 001:876.106   CPU_ReadMem(2 bytes @ 0x20000000)
T46B0 001:879.553 - 3.490ms returns 0x00000009
T46B0 001:879.596 JLINK_Go()
T46B0 001:879.612   CPU_WriteMem(2 bytes @ 0x20000000)
T46B0 001:882.556   CPU_ReadMem(4 bytes @ 0xE0001000)
T46B0 001:897.567 - 18.002ms
T46B0 001:897.618 JLINK_IsHalted()
T46B0 001:921.671   CPU_ReadMem(2 bytes @ 0x20000000)
T46B0 001:925.553 - 27.961ms returns TRUE
T46B0 001:925.609 JLINK_ReadReg(R15 (PC))
T46B0 001:925.634 - 0.031ms returns 0x20000000
T46B0 001:925.650 JLINK_ClrBPEx(BPHandle = 0x00000009)
T46B0 001:925.662 - 0.017ms returns 0x00
T46B0 001:925.676 JLINK_ReadReg(R0)
T46B0 001:925.688 - 0.017ms returns 0x00000000
T46B0 001:926.172 JLINK_WriteMem(0x20000184, 0x27C Bytes, ...)
T46B0 001:926.188   Data:  80 0A 00 20 81 02 00 08 75 4D 00 08 99 46 00 08 ...
T46B0 001:926.214   CPU_WriteMem(636 bytes @ 0x20000184)
T46B0 001:945.557 - 19.414ms returns 0x27C
T46B0 001:945.604 JLINK_WriteMem(0x20000400, 0x184 Bytes, ...)
T46B0 001:945.621   Data:  06 F0 83 F8 09 48 80 47 09 48 00 47 FE E7 FE E7 ...
T46B0 001:945.660   CPU_WriteMem(388 bytes @ 0x20000400)
T46B0 001:958.567 - 12.993ms returns 0x184
T46B0 001:958.619 JLINK_HasError()
T46B0 001:958.639 JLINK_WriteReg(R0, 0x08000000)
T46B0 001:958.665 - 0.032ms returns 0
T46B0 001:958.681 JLINK_WriteReg(R1, 0x00000400)
T46B0 001:958.693 - 0.017ms returns 0
T46B0 001:958.707 JLINK_WriteReg(R2, 0x20000184)
T46B0 001:958.719 - 0.017ms returns 0
T46B0 001:958.732 JLINK_WriteReg(R3, 0x00000000)
T46B0 001:958.744 - 0.017ms returns 0
T46B0 001:958.758 JLINK_WriteReg(R4, 0x00000000)
T46B0 001:958.769 - 0.016ms returns 0
T46B0 001:958.783 JLINK_WriteReg(R5, 0x00000000)
T46B0 001:958.795 - 0.017ms returns 0
T46B0 001:958.808 JLINK_WriteReg(R6, 0x00000000)
T46B0 001:958.820 - 0.017ms returns 0
T46B0 001:958.833 JLINK_WriteReg(R7, 0x00000000)
T46B0 001:958.845 - 0.016ms returns 0
T46B0 001:958.858 JLINK_WriteReg(R8, 0x00000000)
T46B0 001:958.870 - 0.017ms returns 0
T46B0 001:958.884 JLINK_WriteReg(R9, 0x20000180)
T46B0 001:958.895 - 0.017ms returns 0
T46B0 001:958.909 JLINK_WriteReg(R10, 0x00000000)
T46B0 001:958.921 - 0.017ms returns 0
T46B0 001:958.934 JLINK_WriteReg(R11, 0x00000000)
T46B0 001:958.946 - 0.016ms returns 0
T46B0 001:958.959 JLINK_WriteReg(R12, 0x00000000)
T46B0 001:958.971 - 0.017ms returns 0
T46B0 001:958.985 JLINK_WriteReg(R13 (SP), 0x20001000)
T46B0 001:958.998 - 0.018ms returns 0
T46B0 001:959.012 JLINK_WriteReg(R14, 0x20000001)
T46B0 001:959.024 - 0.017ms returns 0
T46B0 001:959.038 JLINK_WriteReg(R15 (PC), 0x2000010C)
T46B0 001:959.051 - 0.018ms returns 0
T46B0 001:959.066 JLINK_WriteReg(XPSR, 0x01000000)
T46B0 001:959.076 - 0.015ms returns 0
T46B0 001:959.088 JLINK_WriteReg(MSP, 0x20001000)
T46B0 001:959.097 - 0.014ms returns 0
T46B0 001:959.109 JLINK_WriteReg(PSP, 0x20001000)
T46B0 001:959.119 - 0.014ms returns 0
T46B0 001:959.131 JLINK_WriteReg(CFBP, 0x00000000)
T46B0 001:959.141 - 0.014ms returns 0
T46B0 001:959.152 JLINK_SetBPEx(Addr = 0x20000000, Type = 0xFFFFFFF2)
T46B0 001:959.164 - 0.015ms returns 0x0000000A
T46B0 001:959.176 JLINK_Go()
T46B0 001:959.197   CPU_ReadMem(4 bytes @ 0xE0001000)
T46B0 001:973.579 - 14.431ms
T46B0 001:973.627 JLINK_IsHalted()
T46B0 001:977.542 - 3.933ms returns FALSE
T46B0 001:977.575 JLINK_HasError()
T46B0 002:081.732 JLINK_IsHalted()
T46B0 002:105.628   CPU_ReadMem(2 bytes @ 0x20000000)
T46B0 002:108.533 - 26.813ms returns TRUE
T46B0 002:108.558 JLINK_ReadReg(R15 (PC))
T46B0 002:108.573 - 0.019ms returns 0x20000000
T46B0 002:108.585 JLINK_ClrBPEx(BPHandle = 0x0000000A)
T46B0 002:108.596 - 0.015ms returns 0x00
T46B0 002:108.608 JLINK_ReadReg(R0)
T46B0 002:108.619 - 0.014ms returns 0x00000000
T46B0 002:109.444 JLINK_WriteMem(0x20000184, 0x27C Bytes, ...)
T46B0 002:109.462   Data:  1E BF 22 FA 05 FC 44 EA 0C 04 20 35 56 EA 04 4C ...
T46B0 002:109.486   CPU_WriteMem(636 bytes @ 0x20000184)
T46B0 002:128.540 - 19.120ms returns 0x27C
T46B0 002:128.576 JLINK_WriteMem(0x20000400, 0x184 Bytes, ...)
T46B0 002:128.587   Data:  70 47 70 47 10 B5 00 F0 2D FA 00 68 10 BD 10 B5 ...
T46B0 002:128.612   CPU_WriteMem(388 bytes @ 0x20000400)
T46B0 002:141.554 - 13.005ms returns 0x184
T46B0 002:141.600 JLINK_HasError()
T46B0 002:141.616 JLINK_WriteReg(R0, 0x08000400)
T46B0 002:141.633 - 0.023ms returns 0
T46B0 002:141.648 JLINK_WriteReg(R1, 0x00000400)
T46B0 002:141.659 - 0.017ms returns 0
T46B0 002:141.673 JLINK_WriteReg(R2, 0x20000184)
T46B0 002:141.696 - 0.028ms returns 0
T46B0 002:141.710 JLINK_WriteReg(R3, 0x00000000)
T46B0 002:141.722 - 0.017ms returns 0
T46B0 002:141.735 JLINK_WriteReg(R4, 0x00000000)
T46B0 002:141.747 - 0.016ms returns 0
T46B0 002:141.764 JLINK_WriteReg(R5, 0x00000000)
T46B0 002:141.777 - 0.018ms returns 0
T46B0 002:141.791 JLINK_WriteReg(R6, 0x00000000)
T46B0 002:141.802 - 0.017ms returns 0
T46B0 002:141.817 JLINK_WriteReg(R7, 0x00000000)
T46B0 002:141.829 - 0.016ms returns 0
T46B0 002:141.842 JLINK_WriteReg(R8, 0x00000000)
T46B0 002:141.854 - 0.016ms returns 0
T46B0 002:141.867 JLINK_WriteReg(R9, 0x20000180)
T46B0 002:141.879 - 0.016ms returns 0
T46B0 002:141.892 JLINK_WriteReg(R10, 0x00000000)
T46B0 002:141.904 - 0.017ms returns 0
T46B0 002:141.918 JLINK_WriteReg(R11, 0x00000000)
T46B0 002:141.929 - 0.016ms returns 0
T46B0 002:141.943 JLINK_WriteReg(R12, 0x00000000)
T46B0 002:141.954 - 0.016ms returns 0
T46B0 002:141.968 JLINK_WriteReg(R13 (SP), 0x20001000)
T46B0 002:141.981 - 0.018ms returns 0
T46B0 002:141.994 JLINK_WriteReg(R14, 0x20000001)
T46B0 002:142.006 - 0.017ms returns 0
T46B0 002:142.020 JLINK_WriteReg(R15 (PC), 0x2000010C)
T46B0 002:142.032 - 0.017ms returns 0
T46B0 002:142.047 JLINK_WriteReg(XPSR, 0x01000000)
T46B0 002:142.059 - 0.017ms returns 0
T46B0 002:142.073 JLINK_WriteReg(MSP, 0x20001000)
T46B0 002:142.084 - 0.015ms returns 0
T46B0 002:142.095 JLINK_WriteReg(PSP, 0x20001000)
T46B0 002:142.105 - 0.014ms returns 0
T46B0 002:142.117 JLINK_WriteReg(CFBP, 0x00000000)
T46B0 002:142.127 - 0.014ms returns 0
T46B0 002:142.139 JLINK_SetBPEx(Addr = 0x20000000, Type = 0xFFFFFFF2)
T46B0 002:142.150 - 0.016ms returns 0x0000000B
T46B0 002:142.162 JLINK_Go()
T46B0 002:142.184   CPU_ReadMem(4 bytes @ 0xE0001000)
T46B0 002:155.588 - 13.451ms
T46B0 002:155.630 JLINK_IsHalted()
T46B0 002:159.540 - 3.927ms returns FALSE
T46B0 002:159.570 JLINK_HasError()
T46B0 002:173.813 JLINK_IsHalted()
T46B0 002:196.687   CPU_ReadMem(2 bytes @ 0x20000000)
T46B0 002:200.551 - 26.753ms returns TRUE
T46B0 002:200.580 JLINK_ReadReg(R15 (PC))
T46B0 002:200.595 - 0.019ms returns 0x20000000
T46B0 002:200.608 JLINK_ClrBPEx(BPHandle = 0x0000000B)
T46B0 002:200.619 - 0.015ms returns 0x00
T46B0 002:200.632 JLINK_ReadReg(R0)
T46B0 002:200.642 - 0.015ms returns 0x00000000
T46B0 002:201.524 JLINK_WriteMem(0x20000184, 0x27C Bytes, ...)
T46B0 002:201.543   Data:  01 02 F5 D1 08 43 02 D0 00 98 C8 B1 0E E0 00 21 ...
T46B0 002:201.568   CPU_WriteMem(636 bytes @ 0x20000184)
T46B0 002:221.561 - 20.063ms returns 0x27C
T46B0 002:221.601 JLINK_WriteMem(0x20000400, 0x184 Bytes, ...)
T46B0 002:221.614   Data:  01 21 90 47 20 6A 40 1C 20 62 28 1E A5 F1 01 05 ...
T46B0 002:221.643   CPU_WriteMem(388 bytes @ 0x20000400)
T46B0 002:234.559 - 12.983ms returns 0x184
T46B0 002:234.600 JLINK_HasError()
T46B0 002:234.614 JLINK_WriteReg(R0, 0x08000800)
T46B0 002:234.629 - 0.019ms returns 0
T46B0 002:234.642 JLINK_WriteReg(R1, 0x00000400)
T46B0 002:234.652 - 0.015ms returns 0
T46B0 002:234.665 JLINK_WriteReg(R2, 0x20000184)
T46B0 002:234.675 - 0.015ms returns 0
T46B0 002:234.688 JLINK_WriteReg(R3, 0x00000000)
T46B0 002:234.698 - 0.014ms returns 0
T46B0 002:234.711 JLINK_WriteReg(R4, 0x00000000)
T46B0 002:234.721 - 0.014ms returns 0
T46B0 002:234.733 JLINK_WriteReg(R5, 0x00000000)
T46B0 002:234.743 - 0.014ms returns 0
T46B0 002:234.755 JLINK_WriteReg(R6, 0x00000000)
T46B0 002:234.765 - 0.014ms returns 0
T46B0 002:234.777 JLINK_WriteReg(R7, 0x00000000)
T46B0 002:234.787 - 0.014ms returns 0
T46B0 002:234.798 JLINK_WriteReg(R8, 0x00000000)
T46B0 002:234.808 - 0.014ms returns 0
T46B0 002:234.820 JLINK_WriteReg(R9, 0x20000180)
T46B0 002:234.830 - 0.014ms returns 0
T46B0 002:234.845 JLINK_WriteReg(R10, 0x00000000)
T46B0 002:234.861 - 0.029ms returns 0
T46B0 002:234.884 JLINK_WriteReg(R11, 0x00000000)
T46B0 002:234.898 - 0.018ms returns 0
T46B0 002:234.911 JLINK_WriteReg(R12, 0x00000000)
T46B0 002:234.921 - 0.015ms returns 0
T46B0 002:234.934 JLINK_WriteReg(R13 (SP), 0x20001000)
T46B0 002:234.951 - 0.026ms returns 0
T46B0 002:234.968 JLINK_WriteReg(R14, 0x20000001)
T46B0 002:234.978 - 0.015ms returns 0
T46B0 002:234.991 JLINK_WriteReg(R15 (PC), 0x2000010C)
T46B0 002:235.001 - 0.014ms returns 0
T46B0 002:235.014 JLINK_WriteReg(XPSR, 0x01000000)
T46B0 002:235.024 - 0.014ms returns 0
T46B0 002:235.036 JLINK_WriteReg(MSP, 0x20001000)
T46B0 002:235.046 - 0.014ms returns 0
T46B0 002:235.058 JLINK_WriteReg(PSP, 0x20001000)
T46B0 002:235.068 - 0.014ms returns 0
T46B0 002:235.080 JLINK_WriteReg(CFBP, 0x00000000)
T46B0 002:235.090 - 0.014ms returns 0
T46B0 002:235.103 JLINK_SetBPEx(Addr = 0x20000000, Type = 0xFFFFFFF2)
T46B0 002:235.114 - 0.016ms returns 0x0000000C
T46B0 002:235.126 JLINK_Go()
T46B0 002:235.148   CPU_ReadMem(4 bytes @ 0xE0001000)
T46B0 002:249.588 - 14.487ms
T46B0 002:249.629 JLINK_IsHalted()
T46B0 002:253.534 - 3.925ms returns FALSE
T46B0 002:253.569 JLINK_HasError()
T46B0 002:271.886 JLINK_IsHalted()
T46B0 002:295.629   CPU_ReadMem(2 bytes @ 0x20000000)
T46B0 002:298.549 - 26.676ms returns TRUE
T46B0 002:298.575 JLINK_ReadReg(R15 (PC))
T46B0 002:298.590 - 0.019ms returns 0x20000000
T46B0 002:298.603 JLINK_ClrBPEx(BPHandle = 0x0000000C)
T46B0 002:298.613 - 0.015ms returns 0x00
T46B0 002:298.627 JLINK_ReadReg(R0)
T46B0 002:298.637 - 0.015ms returns 0x00000000
T46B0 002:299.442 JLINK_WriteMem(0x20000184, 0x27C Bytes, ...)
T46B0 002:299.465   Data:  A0 69 C0 1E A0 61 0F B1 40 1E A0 61 20 46 AF F3 ...
T46B0 002:299.496   CPU_WriteMem(636 bytes @ 0x20000184)
T46B0 002:319.541 - 20.124ms returns 0x27C
T46B0 002:319.578 JLINK_WriteMem(0x20000400, 0x184 Bytes, ...)
T46B0 002:319.589   Data:  10 BD 00 00 49 6E 76 61 6C 69 64 20 4F 70 65 72 ...
T46B0 002:319.616   CPU_WriteMem(388 bytes @ 0x20000400)
T46B0 002:332.562 - 13.009ms returns 0x184
T46B0 002:332.604 JLINK_HasError()
T46B0 002:332.619 JLINK_WriteReg(R0, 0x08000C00)
